!Agilent Technologies,E8363B,MY43030246,A.04.87.01
!Agilent E8363B: A.04.87.01
!Date: Saturday, May 03, 2025 14:57:56
!Correction: S11(Full 2 Port SOLT,1,2) S21(Full 2 Port SOLT,1,2) S12(Full 2 Port SOLT,1,2) S22(Full 2 Port SOLT,1,2) 
!S2P File: Measurements: S11, S21, S12, S22:
# Hz S  RI   R 50
6000000000 -7.103781e-001 -1.755558e-001 5.164922e-003 1.978857e-002 5.215975e-003 1.816108e-002 -6.311764e-001 -3.575425e-001
6000750000 -7.104052e-001 -1.729488e-001 5.540734e-003 1.975026e-002 5.654918e-003 1.804040e-002 -6.299926e-001 -3.564553e-001
6001500000 -7.096070e-001 -1.705950e-001 5.674085e-003 1.955135e-002 5.691477e-003 1.780010e-002 -6.327078e-001 -3.520891e-001
6002250000 -7.100139e-001 -1.679559e-001 6.165936e-003 1.925338e-002 5.842314e-003 1.807726e-002 -6.332507e-001 -3.495455e-001
6003000000 -7.099869e-001 -1.657481e-001 6.408738e-003 1.923749e-002 5.990729e-003 1.783651e-002 -6.328754e-001 -3.476634e-001
6003750000 -7.088330e-001 -1.630409e-001 6.522780e-003 1.932894e-002 6.018837e-003 1.775301e-002 -6.314536e-001 -3.452323e-001
6004500000 -7.101780e-001 -1.623031e-001 6.629310e-003 1.912736e-002 6.251429e-003 1.790156e-002 -6.322978e-001 -3.426480e-001
6005250000 -7.103304e-001 -1.591186e-001 6.655287e-003 1.924680e-002 6.624475e-003 1.797643e-002 -6.346180e-001 -3.405504e-001
6006000000 -7.103700e-001 -1.562283e-001 6.865088e-003 1.899154e-002 6.510822e-003 1.782597e-002 -6.341075e-001 -3.362252e-001
6006750000 -7.110520e-001 -1.537195e-001 7.247343e-003 1.877654e-002 6.566727e-003 1.776499e-002 -6.346798e-001 -3.346711e-001
6007500000 -7.112897e-001 -1.508378e-001 7.333059e-003 1.884901e-002 6.772220e-003 1.777663e-002 -6.369710e-001 -3.324374e-001
6008250000 -7.110431e-001 -1.491482e-001 7.523412e-003 1.886874e-002 6.978177e-003 1.792095e-002 -6.374100e-001 -3.281872e-001
6009000000 -7.101029e-001 -1.474959e-001 7.846856e-003 1.873712e-002 7.046514e-003 1.773932e-002 -6.380773e-001 -3.262126e-001
6009750000 -7.102537e-001 -1.440869e-001 7.861768e-003 1.868429e-002 7.412804e-003 1.768575e-002 -6.367482e-001 -3.248621e-001
6010500000 -7.104429e-001 -1.407850e-001 8.332931e-003 1.859916e-002 7.670215e-003 1.768260e-002 -6.379147e-001 -3.225029e-001
6011250000 -7.104377e-001 -1.391697e-001 8.709582e-003 1.847151e-002 7.950761e-003 1.759673e-002 -6.379760e-001 -3.191573e-001
6012000000 -7.110792e-001 -1.375063e-001 8.709307e-003 1.832653e-002 8.262657e-003 1.771194e-002 -6.384888e-001 -3.175901e-001
6012750000 -7.107602e-001 -1.338583e-001 9.197349e-003 1.811985e-002 8.343893e-003 1.713005e-002 -6.395314e-001 -3.138524e-001
6013500000 -7.101056e-001 -1.318311e-001 9.241951e-003 1.804162e-002 8.582141e-003 1.735259e-002 -6.421875e-001 -3.111470e-001
6014250000 -7.107100e-001 -1.295688e-001 9.070956e-003 1.754336e-002 8.537850e-003 1.694376e-002 -6.415344e-001 -3.109825e-001
6015000000 -7.099973e-001 -1.258121e-001 9.564584e-003 1.736748e-002 8.690634e-003 1.683132e-002 -6.421414e-001 -3.073055e-001
6015750000 -7.110091e-001 -1.260293e-001 9.399334e-003 1.737973e-002 8.636971e-003 1.680012e-002 -6.413990e-001 -3.032931e-001
6016500000 -7.113168e-001 -1.219322e-001 9.572161e-003 1.737484e-002 8.449031e-003 1.667613e-002 -6.420889e-001 -3.032133e-001
6017250000 -7.113116e-001 -1.197280e-001 9.423551e-003 1.708693e-002 8.817849e-003 1.669896e-002 -6.438860e-001 -2.989275e-001
6018000000 -7.112447e-001 -1.162812e-001 9.618794e-003 1.682748e-002 8.640471e-003 1.641962e-002 -6.443726e-001 -2.987850e-001
6018750000 -7.118644e-001 -1.135590e-001 9.574523e-003 1.689169e-002 8.876241e-003 1.643078e-002 -6.446192e-001 -2.949578e-001
6019500000 -7.134004e-001 -1.124567e-001 9.737400e-003 1.671812e-002 8.831610e-003 1.638405e-002 -6.455486e-001 -2.930374e-001
6020250000 -7.116916e-001 -1.101705e-001 9.890272e-003 1.673121e-002 9.004772e-003 1.660182e-002 -6.473783e-001 -2.896495e-001
6021000000 -7.109706e-001 -1.073380e-001 9.980424e-003 1.688558e-002 9.055310e-003 1.646770e-002 -6.468719e-001 -2.869562e-001
6021750000 -7.105535e-001 -1.035111e-001 9.903325e-003 1.647501e-002 9.235290e-003 1.651809e-002 -6.474890e-001 -2.839183e-001
6022500000 -7.121697e-001 -1.013809e-001 1.018372e-002 1.659955e-002 9.264948e-003 1.628031e-002 -6.473997e-001 -2.821902e-001
6023250000 -7.120100e-001 -9.999551e-002 1.032834e-002 1.634144e-002 9.322105e-003 1.617481e-002 -6.483243e-001 -2.797589e-001
6024000000 -7.105721e-001 -9.754287e-002 9.968424e-003 1.639153e-002 9.414175e-003 1.606175e-002 -6.498381e-001 -2.770865e-001
6024750000 -7.103944e-001 -9.428595e-002 1.034437e-002 1.601000e-002 9.669920e-003 1.647465e-002 -6.497108e-001 -2.743566e-001
6025500000 -7.127355e-001 -9.122167e-002 1.050347e-002 1.597655e-002 9.553926e-003 1.621103e-002 -6.505829e-001 -2.712329e-001
6026250000 -7.101339e-001 -8.959003e-002 1.048836e-002 1.574618e-002 9.491974e-003 1.621995e-002 -6.511087e-001 -2.679157e-001
6027000000 -7.086077e-001 -8.590049e-002 1.041070e-002 1.605622e-002 9.678950e-003 1.610591e-002 -6.515665e-001 -2.656582e-001
6027750000 -7.093031e-001 -8.361788e-002 1.046491e-002 1.579479e-002 9.614473e-003 1.624265e-002 -6.531016e-001 -2.634893e-001
6028500000 -7.097015e-001 -7.973605e-002 1.033348e-002 1.610793e-002 9.725028e-003 1.624798e-002 -6.532511e-001 -2.603536e-001
6029250000 -7.084801e-001 -7.805416e-002 1.044790e-002 1.574910e-002 9.840410e-003 1.608109e-002 -6.530944e-001 -2.580385e-001
6030000000 -7.087427e-001 -7.679301e-002 1.057315e-002 1.600183e-002 1.013767e-002 1.643912e-002 -6.534057e-001 -2.544173e-001
6030750000 -7.099541e-001 -7.453034e-002 1.050187e-002 1.595530e-002 9.981453e-003 1.636178e-002 -6.527945e-001 -2.516955e-001
6031500000 -7.074627e-001 -7.127833e-002 1.064848e-002 1.599951e-002 1.017425e-002 1.641449e-002 -6.544223e-001 -2.479909e-001
6032250000 -7.078665e-001 -6.992619e-002 1.080390e-002 1.589560e-002 1.039563e-002 1.646498e-002 -6.557943e-001 -2.466931e-001
6033000000 -7.069542e-001 -6.803231e-002 1.068844e-002 1.617589e-002 1.041163e-002 1.680109e-002 -6.552267e-001 -2.448381e-001
6033750000 -7.063963e-001 -6.422945e-002 1.085889e-002 1.614512e-002 1.074558e-002 1.664142e-002 -6.543902e-001 -2.401481e-001
6034500000 -7.069944e-001 -6.090700e-002 1.114572e-002 1.588034e-002 1.074274e-002 1.666295e-002 -6.546717e-001 -2.385449e-001
6035250000 -7.065660e-001 -5.919129e-002 1.108071e-002 1.601220e-002 1.113454e-002 1.669366e-002 -6.554276e-001 -2.347850e-001
6036000000 -7.068092e-001 -5.753473e-002 1.145229e-002 1.602019e-002 1.148423e-002 1.685237e-002 -6.562932e-001 -2.313979e-001
6036750000 -7.067187e-001 -5.598391e-002 1.186236e-002 1.586915e-002 1.174077e-002 1.676561e-002 -6.565338e-001 -2.286793e-001
6037500000 -7.060404e-001 -5.327256e-002 1.219294e-002 1.590053e-002 1.191437e-002 1.648417e-002 -6.559040e-001 -2.256114e-001
6038250000 -7.049003e-001 -5.158048e-002 1.205734e-002 1.597666e-002 1.228835e-002 1.664237e-002 -6.556224e-001 -2.232210e-001
6039000000 -7.059745e-001 -5.006076e-002 1.228635e-002 1.575151e-002 1.232892e-002 1.671530e-002 -6.575595e-001 -2.213182e-001
6039750000 -7.069725e-001 -4.560220e-002 1.236721e-002 1.580703e-002 1.251049e-002 1.636645e-002 -6.576110e-001 -2.181994e-001
6040500000 -7.053831e-001 -4.394668e-002 1.247403e-002 1.556249e-002 1.259550e-002 1.633571e-002 -6.552131e-001 -2.153175e-001
6041250000 -7.060521e-001 -4.098108e-002 1.259201e-002 1.548429e-002 1.291708e-002 1.625635e-002 -6.572608e-001 -2.130052e-001
6042000000 -7.063969e-001 -3.859797e-002 1.243317e-002 1.531067e-002 1.302871e-002 1.593615e-002 -6.576546e-001 -2.094727e-001
6042750000 -7.055858e-001 -3.574408e-002 1.263146e-002 1.524851e-002 1.301973e-002 1.582896e-002 -6.569040e-001 -2.045777e-001
6043500000 -7.065920e-001 -3.404573e-002 1.289721e-002 1.524942e-002 1.329549e-002 1.621315e-002 -6.575361e-001 -2.031188e-001
6044250000 -7.048909e-001 -3.106507e-002 1.277022e-002 1.514513e-002 1.324054e-002 1.597291e-002 -6.570883e-001 -1.999775e-001
6045000000 -7.043394e-001 -2.951856e-002 1.288806e-002 1.531767e-002 1.340786e-002 1.627292e-002 -6.575659e-001 -1.987042e-001
6045750000 -7.049326e-001 -2.425818e-002 1.316569e-002 1.520762e-002 1.359546e-002 1.600526e-002 -6.582627e-001 -1.949933e-001
6046500000 -7.030574e-001 -2.168417e-002 1.317985e-002 1.537118e-002 1.372638e-002 1.573250e-002 -6.592343e-001 -1.922207e-001
6047250000 -7.040920e-001 -1.971091e-002 1.319935e-002 1.512609e-002 1.383267e-002 1.607350e-002 -6.589603e-001 -1.884825e-001
6048000000 -7.044235e-001 -1.709169e-002 1.316572e-002 1.526154e-002 1.421693e-002 1.586393e-002 -6.571041e-001 -1.873418e-001
6048750000 -7.026942e-001 -1.429093e-002 1.354157e-002 1.549395e-002 1.437561e-002 1.591006e-002 -6.583665e-001 -1.842749e-001
6049500000 -7.027987e-001 -1.077577e-002 1.395194e-002 1.565250e-002 1.464679e-002 1.585072e-002 -6.590310e-001 -1.795580e-001
6050250000 -7.018020e-001 -8.594562e-003 1.381935e-002 1.544362e-002 1.477666e-002 1.581541e-002 -6.591336e-001 -1.773389e-001
6051000000 -7.014489e-001 -7.035075e-003 1.417329e-002 1.529875e-002 1.535888e-002 1.574170e-002 -6.572228e-001 -1.758797e-001
6051750000 -7.007564e-001 -5.822149e-003 1.439743e-002 1.528801e-002 1.555475e-002 1.559359e-002 -6.587521e-001 -1.715821e-001
6052500000 -6.988240e-001 -1.567323e-003 1.467975e-002 1.508454e-002 1.577114e-002 1.537122e-002 -6.576917e-001 -1.698340e-001
6053250000 -6.991227e-001 5.345368e-005 1.475561e-002 1.501120e-002 1.585690e-002 1.542004e-002 -6.586187e-001 -1.674011e-001
6054000000 -6.989703e-001 2.163794e-003 1.484864e-002 1.490617e-002 1.610104e-002 1.516563e-002 -6.571231e-001 -1.628471e-001
6054750000 -6.974937e-001 5.368720e-003 1.533681e-002 1.501087e-002 1.636761e-002 1.504960e-002 -6.573017e-001 -1.611191e-001
6055500000 -6.976389e-001 6.815429e-003 1.537173e-002 1.491655e-002 1.636860e-002 1.499844e-002 -6.580254e-001 -1.577716e-001
6056250000 -6.970360e-001 1.055728e-002 1.546792e-002 1.476115e-002 1.675789e-002 1.477792e-002 -6.580029e-001 -1.556107e-001
6057000000 -6.951619e-001 1.144467e-002 1.573477e-002 1.470528e-002 1.705708e-002 1.458135e-002 -6.582593e-001 -1.524125e-001
6057750000 -6.956863e-001 1.387442e-002 1.583945e-002 1.468224e-002 1.724522e-002 1.448153e-002 -6.581501e-001 -1.503715e-001
6058500000 -6.951981e-001 1.699496e-002 1.576578e-002 1.439540e-002 1.711035e-002 1.435828e-002 -6.569980e-001 -1.475401e-001
6059250000 -6.944649e-001 1.876594e-002 1.610324e-002 1.443869e-002 1.734894e-002 1.412836e-002 -6.564215e-001 -1.431089e-001
6060000000 -6.949948e-001 2.113120e-002 1.642621e-002 1.442113e-002 1.770646e-002 1.404868e-002 -6.551790e-001 -1.419917e-001
6060750000 -6.948113e-001 2.472177e-002 1.652958e-002 1.434131e-002 1.757528e-002 1.384600e-002 -6.560841e-001 -1.384544e-001
6061500000 -6.937856e-001 2.696212e-002 1.684580e-002 1.433576e-002 1.789137e-002 1.394476e-002 -6.559479e-001 -1.348761e-001
6062250000 -6.928921e-001 2.933351e-002 1.709017e-002 1.432803e-002 1.796379e-002 1.352592e-002 -6.551918e-001 -1.317022e-001
6063000000 -6.920096e-001 3.209882e-002 1.716728e-002 1.417127e-002 1.846916e-002 1.333643e-002 -6.547538e-001 -1.285152e-001
6063750000 -6.915051e-001 3.475532e-002 1.741055e-002 1.391932e-002 1.839374e-002 1.322870e-002 -6.550341e-001 -1.253258e-001
6064500000 -6.904416e-001 3.685342e-002 1.757456e-002 1.383052e-002 1.882101e-002 1.283388e-002 -6.552777e-001 -1.218040e-001
6065250000 -6.896777e-001 3.924211e-002 1.767544e-002 1.364196e-002 1.874722e-002 1.282974e-002 -6.547831e-001 -1.211502e-001
6066000000 -6.884293e-001 4.198879e-002 1.771710e-002 1.367267e-002 1.882957e-002 1.281287e-002 -6.551633e-001 -1.177907e-001
6066750000 -6.889782e-001 4.435166e-002 1.794370e-002 1.354147e-002 1.896590e-002 1.250579e-002 -6.540856e-001 -1.144993e-001
6067500000 -6.870132e-001 4.701293e-002 1.823921e-002 1.332062e-002 1.913605e-002 1.241202e-002 -6.539952e-001 -1.113014e-001
6068250000 -6.854296e-001 4.995572e-002 1.834340e-002 1.319857e-002 1.918629e-002 1.229761e-002 -6.523703e-001 -1.097934e-001
6069000000 -6.854129e-001 5.273440e-002 1.867205e-002 1.323989e-002 1.918510e-002 1.210957e-002 -6.546104e-001 -1.082892e-001
6069750000 -6.852421e-001 5.469275e-002 1.867515e-002 1.321381e-002 1.959256e-002 1.185609e-002 -6.515005e-001 -1.041357e-001
6070500000 -6.833536e-001 5.475619e-002 1.885793e-002 1.285609e-002 1.946619e-002 1.178901e-002 -6.520151e-001 -1.020507e-001
6071250000 -6.811978e-001 5.766929e-002 1.906224e-002 1.275149e-002 1.969755e-002 1.139607e-002 -6.516011e-001 -9.806672e-002
6072000000 -6.834484e-001 6.002241e-002 1.921981e-002 1.248414e-002 1.980942e-002 1.152378e-002 -6.514055e-001 -9.651563e-002
6072750000 -6.816722e-001 6.209979e-002 1.952870e-002 1.244799e-002 2.007524e-002 1.138219e-002 -6.520271e-001 -9.216414e-002
6073500000 -6.787460e-001 6.600136e-002 1.975000e-002 1.239658e-002 2.024909e-002 1.115886e-002 -6.517949e-001 -8.845218e-002
6074250000 -6.792021e-001 6.614361e-002 2.013056e-002 1.228051e-002 2.050534e-002 1.085062e-002 -6.501357e-001 -8.692835e-002
6075000000 -6.785319e-001 6.919380e-002 2.015842e-002 1.208021e-002 2.075425e-002 1.059801e-002 -6.503846e-001 -8.404484e-002
6075750000 -6.778640e-001 7.163059e-002 2.055614e-002 1.168431e-002 2.079427e-002 1.052253e-002 -6.504153e-001 -8.119595e-002
6076500000 -6.762307e-001 7.455061e-002 2.085536e-002 1.145116e-002 2.109018e-002 1.021650e-002 -6.495425e-001 -7.921302e-002
6077250000 -6.754009e-001 7.601833e-002 2.110838e-002 1.147547e-002 2.110988e-002 1.002375e-002 -6.494636e-001 -7.574931e-002
6078000000 -6.745787e-001 7.812855e-002 2.127091e-002 1.093600e-002 2.131641e-002 9.673153e-003 -6.489971e-001 -7.308509e-002
6078750000 -6.736257e-001 8.048077e-002 2.126572e-002 1.078987e-002 2.160304e-002 9.584083e-003 -6.477986e-001 -7.014613e-002
6079500000 -6.726021e-001 8.316275e-002 2.135688e-002 1.024830e-002 2.133248e-002 9.170316e-003 -6.475996e-001 -6.664348e-002
6080250000 -6.719253e-001 8.690823e-002 2.153789e-002 1.012529e-002 2.179995e-002 9.250191e-003 -6.460103e-001 -6.330854e-002
6081000000 -6.698564e-001 8.716111e-002 2.157037e-002 9.939418e-003 2.150021e-002 8.955636e-003 -6.461523e-001 -6.099730e-002
6081750000 -6.689575e-001 8.984407e-002 2.165065e-002 9.660838e-003 2.157386e-002 8.510659e-003 -6.443766e-001 -5.974396e-002
6082500000 -6.689658e-001 9.248836e-002 2.188310e-002 9.299100e-003 2.166648e-002 8.186323e-003 -6.435802e-001 -5.493975e-002
6083250000 -6.674482e-001 9.342664e-002 2.177311e-002 9.166882e-003 2.205507e-002 8.166559e-003 -6.427216e-001 -5.301600e-002
6084000000 -6.666815e-001 9.532800e-002 2.221432e-002 8.684899e-003 2.195610e-002 7.731014e-003 -6.431352e-001 -5.145867e-002
6084750000 -6.658421e-001 9.645262e-002 2.229497e-002 8.383649e-003 2.192523e-002 7.584278e-003 -6.422376e-001 -4.794776e-002
6085500000 -6.658458e-001 9.946641e-002 2.237220e-002 8.198442e-003 2.211995e-002 7.213583e-003 -6.420168e-001 -4.589780e-002
6086250000 -6.627990e-001 1.019277e-001 2.218283e-002 7.949170e-003 2.186589e-002 6.870326e-003 -6.403494e-001 -4.379218e-002
6087000000 -6.636723e-001 1.032579e-001 2.242939e-002 7.676816e-003 2.182519e-002 6.581700e-003 -6.402996e-001 -4.059466e-002
6087750000 -6.615683e-001 1.063692e-001 2.241449e-002 7.478754e-003 2.194227e-002 6.559945e-003 -6.395078e-001 -3.771681e-002
6088500000 -6.607462e-001 1.076361e-001 2.221564e-002 7.303035e-003 2.181222e-002 6.333676e-003 -6.383842e-001 -3.403949e-002
6089250000 -6.603558e-001 1.089329e-001 2.238248e-002 6.778322e-003 2.178410e-002 5.986257e-003 -6.384381e-001 -3.174855e-002
6090000000 -6.600674e-001 1.120766e-001 2.211933e-002 6.538679e-003 2.169277e-002 5.692685e-003 -6.367443e-001 -3.113464e-002
6090750000 -6.593427e-001 1.135394e-001 2.221065e-002 6.247305e-003 2.173705e-002 5.780309e-003 -6.364917e-001 -2.662256e-002
6091500000 -6.579635e-001 1.151911e-001 2.197002e-002 6.142633e-003 2.175405e-002 5.558017e-003 -6.367157e-001 -2.475350e-002
6092250000 -6.572008e-001 1.171599e-001 2.186569e-002 6.119533e-003 2.150520e-002 5.327053e-003 -6.348044e-001 -2.217448e-002
6093000000 -6.563136e-001 1.201563e-001 2.194808e-002 6.234679e-003 2.175010e-002 5.284284e-003 -6.349634e-001 -1.945163e-002
6093750000 -6.562044e-001 1.216719e-001 2.208743e-002 5.832549e-003 2.155506e-002 5.157356e-003 -6.344710e-001 -1.681845e-002
6094500000 -6.558515e-001 1.237919e-001 2.191694e-002 5.703335e-003 2.134791e-002 5.139562e-003 -6.345280e-001 -1.331213e-002
6095250000 -6.536818e-001 1.264906e-001 2.198521e-002 5.395954e-003 2.132489e-002 4.730954e-003 -6.344301e-001 -1.069241e-002
6096000000 -6.526194e-001 1.285425e-001 2.184423e-002 5.435464e-003 2.140843e-002 4.756003e-003 -6.323943e-001 -8.317458e-003
6096750000 -6.521333e-001 1.298890e-001 2.172111e-002 5.327478e-003 2.128260e-002 4.805848e-003 -6.320029e-001 -4.216370e-003
6097500000 -6.515231e-001 1.326157e-001 2.196375e-002 5.195570e-003 2.146394e-002 4.580512e-003 -6.331929e-001 -2.044420e-003
6098250000 -6.497559e-001 1.354233e-001 2.229374e-002 5.247453e-003 2.153878e-002 4.736606e-003 -6.325693e-001 3.264975e-004
6099000000 -6.499391e-001 1.376319e-001 2.218792e-002 5.030609e-003 2.157144e-002 4.531253e-003 -6.302347e-001 3.477820e-003
6099750000 -6.490627e-001 1.391108e-001 2.213847e-002 4.851106e-003 2.142551e-002 4.553874e-003 -6.310391e-001 6.716316e-003
6100500000 -6.481819e-001 1.416513e-001 2.214223e-002 4.972862e-003 2.150581e-002 4.620679e-003 -6.296915e-001 9.790499e-003
6101250000 -6.462113e-001 1.444143e-001 2.208514e-002 4.905116e-003 2.162357e-002 4.444858e-003 -6.288275e-001 1.229499e-002
6102000000 -6.463042e-001 1.447405e-001 2.229363e-002 4.898129e-003 2.173910e-002 4.110789e-003 -6.274376e-001 1.575837e-002
6102750000 -6.451609e-001 1.486214e-001 2.222899e-002 4.667920e-003 2.177091e-002 4.245611e-003 -6.266659e-001 1.789139e-002
6103500000 -6.449480e-001 1.499903e-001 2.244180e-002 4.523573e-003 2.171158e-002 4.180857e-003 -6.249520e-001 2.192272e-002
6104250000 -6.438352e-001 1.523568e-001 2.255525e-002 4.339618e-003 2.197079e-002 4.000734e-003 -6.249483e-001 2.584366e-002
6105000000 -6.417335e-001 1.548009e-001 2.269393e-002 4.252599e-003 2.197519e-002 3.993681e-003 -6.235245e-001 2.659494e-002
6105750000 -6.399905e-001 1.566096e-001 2.268027e-002 4.276282e-003 2.223812e-002 3.860910e-003 -6.227537e-001 3.154547e-002
6106500000 -6.397412e-001 1.600360e-001 2.297997e-002 4.019081e-003 2.234804e-002 3.641749e-003 -6.214138e-001 3.270025e-002
6107250000 -6.387179e-001 1.620571e-001 2.299471e-002 3.979236e-003 2.254671e-002 3.533006e-003 -6.204854e-001 3.517189e-002
6108000000 -6.372219e-001 1.642933e-001 2.306204e-002 3.670545e-003 2.258132e-002 3.314010e-003 -6.207448e-001 4.047314e-002
6108750000 -6.353433e-001 1.656524e-001 2.303031e-002 3.525199e-003 2.262983e-002 3.291494e-003 -6.183397e-001 4.112037e-002
6109500000 -6.349685e-001 1.675176e-001 2.313168e-002 3.137296e-003 2.281110e-002 3.065058e-003 -6.167703e-001 4.489670e-002
6110250000 -6.327380e-001 1.696495e-001 2.307727e-002 2.888791e-003 2.266908e-002 2.873567e-003 -6.166402e-001 4.667283e-002
6111000000 -6.328659e-001 1.720928e-001 2.355244e-002 2.899686e-003 2.285967e-002 2.857274e-003 -6.159515e-001 4.977898e-002
6111750000 -6.316389e-001 1.743199e-001 2.337234e-002 2.892514e-003 2.301309e-002 2.656572e-003 -6.143197e-001 5.198076e-002
6112500000 -6.307691e-001 1.760657e-001 2.348569e-002 2.336517e-003 2.336595e-002 2.669109e-003 -6.120557e-001 5.697227e-002
6113250000 -6.287593e-001 1.786894e-001 2.364845e-002 2.549383e-003 2.323184e-002 2.468958e-003 -6.110794e-001 5.841882e-002
6114000000 -6.272068e-001 1.804975e-001 2.374184e-002 2.190870e-003 2.355906e-002 2.483039e-003 -6.102749e-001 6.078469e-002
6114750000 -6.254415e-001 1.824579e-001 2.370328e-002 2.138340e-003 2.364881e-002 1.974216e-003 -6.084331e-001 6.319735e-002
6115500000 -6.253677e-001 1.842709e-001 2.434667e-002 1.880408e-003 2.376614e-002 1.872658e-003 -6.087340e-001 6.735156e-002
