!Agilent Technologies,E8363B,MY43030246,A.04.87.01
!Agilent E8363B: A.04.87.01
!Date: Friday, May 02, 2025 12:00:08
!Correction: S11(Full 2 Port SOLT,1,2) S21(Full 2 Port SOLT,1,2) S12(Full 2 Port SOLT,1,2) S22(Full 2 Port SOLT,1,2) 
!S2P File: Measurements: S11, S21, S12, S22:
# Hz S  RI   R 50
5000000000 -6.200749e-001 4.504827e-001 -3.999254e-003 -5.215606e-003 -3.864733e-003 -5.528588e-003 2.903238e-001 6.593109e-001
5006250000 -5.962644e-001 4.818558e-001 -3.990079e-003 -3.925323e-003 -3.951422e-003 -4.285285e-003 3.249378e-001 6.464996e-001
5012500000 -5.696978e-001 5.122734e-001 -3.876740e-003 -3.365766e-003 -3.916950e-003 -3.870182e-003 3.590040e-001 6.304789e-001
5018750000 -5.417119e-001 5.398288e-001 -3.412291e-003 -2.324760e-003 -3.471614e-003 -3.123092e-003 3.915481e-001 6.126209e-001
5025000000 -5.130082e-001 5.668090e-001 -1.705473e-003 -2.062976e-003 -2.501561e-003 -2.812702e-003 4.210233e-001 5.931376e-001
5031250000 -4.818805e-001 5.912412e-001 -1.637628e-003 -3.330538e-003 -2.110367e-003 -3.754833e-003 4.487591e-001 5.756739e-001
5037500000 -4.504889e-001 6.124373e-001 -2.473326e-003 -4.167553e-003 -3.334386e-003 -5.071124e-003 4.781167e-001 5.563696e-001
5043750000 -4.203937e-001 6.322259e-001 -2.948773e-003 -3.381031e-003 -4.449474e-003 -3.880860e-003 5.064396e-001 5.353497e-001
5050000000 -3.882380e-001 6.519334e-001 -2.929823e-003 -3.132570e-003 -4.433755e-003 -2.902274e-003 5.335752e-001 5.125937e-001
5056250000 -3.554736e-001 6.676307e-001 -2.271751e-003 -3.627725e-003 -3.516384e-003 -2.708869e-003 5.578895e-001 4.872717e-001
5062500000 -3.244755e-001 6.821700e-001 -3.006084e-003 -4.258848e-003 -3.591076e-003 -3.205508e-003 5.808588e-001 4.626690e-001
5068750000 -2.940900e-001 6.970274e-001 -3.766386e-003 -4.024657e-003 -4.051342e-003 -3.298166e-003 6.015749e-001 4.383063e-001
5075000000 -2.615833e-001 7.117975e-001 -4.012411e-003 -4.010426e-003 -4.358007e-003 -3.335851e-003 6.228656e-001 4.146694e-001
5081250000 -2.271721e-001 7.252991e-001 -4.350994e-003 -3.907536e-003 -4.722727e-003 -3.278256e-003 6.428501e-001 3.875363e-001
5087500000 -1.921318e-001 7.352061e-001 -4.780513e-003 -4.097527e-003 -4.986212e-003 -3.221853e-003 6.605374e-001 3.619846e-001
5093750000 -1.565129e-001 7.439606e-001 -5.485559e-003 -3.803660e-003 -5.422800e-003 -3.039651e-003 6.794082e-001 3.352008e-001
5100000000 -1.209325e-001 7.489561e-001 -6.371108e-003 -3.950123e-003 -6.317017e-003 -3.260684e-003 6.948478e-001 3.060724e-001
5106250000 -8.692177e-002 7.533776e-001 -7.235739e-003 -3.087260e-003 -7.326423e-003 -2.446948e-003 7.082155e-001 2.788378e-001
5112500000 -5.269201e-002 7.561983e-001 -8.022322e-003 -2.258532e-003 -7.932365e-003 -1.198546e-003 7.208726e-001 2.514029e-001
5118750000 -1.960917e-002 7.580687e-001 -8.545995e-003 -6.775658e-004 -7.790576e-003 2.976861e-004 7.341805e-001 2.244959e-001
5125000000 1.407774e-002 7.583976e-001 -8.026199e-003 1.249524e-003 -7.182258e-003 1.533833e-003 7.454045e-001 1.953790e-001
5131250000 4.725250e-002 7.580920e-001 -6.368747e-003 2.131663e-003 -6.034698e-003 2.184497e-003 7.547945e-001 1.666231e-001
5137500000 8.207234e-002 7.567870e-001 -4.916911e-003 1.223988e-003 -4.691766e-003 1.899617e-003 7.629192e-001 1.381148e-001
5143750000 1.162722e-001 7.519406e-001 -5.835735e-003 1.686750e-004 -5.033410e-003 8.237698e-004 7.703543e-001 1.096347e-001
5150000000 1.486249e-001 7.457199e-001 -6.088036e-003 1.025244e-003 -5.062181e-003 1.170716e-003 7.762000e-001 8.109215e-002
5156250000 1.809545e-001 7.393430e-001 -6.074069e-003 1.123850e-003 -5.186289e-003 9.517387e-004 7.803312e-001 5.309195e-002
5162500000 2.129769e-001 7.308652e-001 -6.443152e-003 1.575745e-003 -5.592264e-003 1.366986e-003 7.859011e-001 2.575438e-002
5168750000 2.439302e-001 7.211984e-001 -6.202430e-003 2.284259e-003 -5.465387e-003 1.580876e-003 7.899521e-001 -3.251126e-003
5175000000 2.731470e-001 7.111867e-001 -6.064615e-003 2.753502e-003 -5.755735e-003 2.035369e-003 7.917022e-001 -3.288215e-002
5181250000 3.038141e-001 6.999970e-001 -5.941307e-003 2.969459e-003 -5.971351e-003 2.563576e-003 7.917774e-001 -6.139849e-002
5187500000 3.340283e-001 6.874905e-001 -5.744513e-003 3.618259e-003 -5.572230e-003 3.384233e-003 7.906579e-001 -8.955959e-002
5193750000 3.630402e-001 6.729784e-001 -5.040230e-003 3.518027e-003 -4.861730e-003 3.226922e-003 7.884328e-001 -1.169209e-001
5200000000 3.902427e-001 6.571360e-001 -5.293180e-003 3.684138e-003 -5.244122e-003 3.050870e-003 7.858969e-001 -1.430627e-001
5206250000 4.168093e-001 6.406490e-001 -5.672355e-003 4.041157e-003 -5.738220e-003 3.777935e-003 7.837760e-001 -1.686618e-001
5212500000 4.420671e-001 6.247818e-001 -5.165307e-003 4.788804e-003 -5.210221e-003 4.606369e-003 7.812191e-001 -1.963128e-001
5218750000 4.680913e-001 6.074365e-001 -4.534494e-003 5.192333e-003 -4.870572e-003 4.949919e-003 7.764435e-001 -2.234304e-001
5225000000 4.923154e-001 5.888352e-001 -4.441202e-003 5.284488e-003 -4.410574e-003 5.335548e-003 7.694561e-001 -2.499888e-001
5231250000 5.158766e-001 5.699233e-001 -4.317441e-003 5.346893e-003 -4.135428e-003 5.303226e-003 7.622630e-001 -2.749487e-001
5237500000 5.387123e-001 5.504221e-001 -4.441588e-003 5.931895e-003 -4.295126e-003 5.715791e-003 7.541757e-001 -2.992325e-001
5243750000 5.621113e-001 5.306181e-001 -4.259873e-003 6.665337e-003 -4.215127e-003 6.412320e-003 7.465574e-001 -3.215648e-001
5250000000 5.841488e-001 5.077817e-001 -3.045276e-003 7.618683e-003 -3.072449e-003 7.340963e-003 7.400086e-001 -3.454632e-001
5256250000 6.038592e-001 4.848106e-001 -2.437670e-003 7.557031e-003 -2.406490e-003 7.353936e-003 7.309036e-001 -3.701260e-001
5262500000 6.228949e-001 4.608830e-001 -1.187793e-003 7.149782e-003 -1.301486e-003 7.028039e-003 7.204043e-001 -3.935850e-001
5268750000 6.396331e-001 4.374552e-001 -1.433888e-003 6.938265e-003 -1.292148e-003 6.603565e-003 7.101005e-001 -4.163700e-001
5275000000 6.567653e-001 4.150955e-001 -1.151545e-003 7.473186e-003 -1.316610e-003 6.953730e-003 6.984557e-001 -4.391012e-001
5281250000 6.736160e-001 3.911999e-001 -2.794716e-004 7.629261e-003 -6.417690e-004 7.430366e-003 6.857390e-001 -4.603783e-001
5287500000 6.901410e-001 3.658474e-001 4.929624e-004 7.208791e-003 3.391174e-005 7.144832e-003 6.730950e-001 -4.806710e-001
5293750000 7.040709e-001 3.401743e-001 1.018785e-003 7.175276e-003 8.245764e-004 7.231348e-003 6.609657e-001 -5.007481e-001
5300000000 7.178011e-001 3.143599e-001 1.689559e-003 6.291921e-003 1.700336e-003 6.309032e-003 6.477346e-001 -5.208381e-001
5306250000 7.302776e-001 2.876682e-001 1.220515e-003 5.190620e-003 1.245438e-003 5.162334e-003 6.345357e-001 -5.403705e-001
5312500000 7.414318e-001 2.610195e-001 2.623556e-004 5.721569e-003 4.501054e-005 5.421190e-003 6.200554e-001 -5.605725e-001
5318750000 7.519714e-001 2.337421e-001 2.473599e-004 6.823913e-003 -2.576500e-005 6.818985e-003 6.047272e-001 -5.789871e-001
5325000000 7.600384e-001 2.058725e-001 1.137096e-003 7.174734e-003 9.334208e-004 6.938188e-003 5.889553e-001 -5.966181e-001
5331250000 7.668585e-001 1.790391e-001 1.511286e-003 7.558479e-003 1.140513e-003 7.605008e-003 5.729496e-001 -6.133987e-001
5337500000 7.743941e-001 1.534802e-001 3.067845e-003 7.897497e-003 2.892719e-003 7.911078e-003 5.571606e-001 -6.296598e-001
5343750000 7.812716e-001 1.259350e-001 3.691317e-003 6.776378e-003 3.406903e-003 6.795845e-003 5.408931e-001 -6.458079e-001
5350000000 7.861680e-001 9.851740e-002 3.813663e-003 6.438200e-003 3.554991e-003 6.549747e-003 5.232787e-001 -6.622511e-001
5356250000 7.904274e-001 7.092251e-002 3.691202e-003 6.245671e-003 3.614821e-003 6.399028e-003 5.045691e-001 -6.761649e-001
5362500000 7.944264e-001 4.409448e-002 4.219692e-003 6.571971e-003 3.894159e-003 6.619581e-003 4.866363e-001 -6.892337e-001
5368750000 7.969034e-001 1.599299e-002 4.559248e-003 6.384057e-003 4.373084e-003 6.723069e-003 4.689403e-001 -7.023926e-001
5375000000 7.985129e-001 -1.217218e-002 5.087054e-003 6.688416e-003 5.057623e-003 6.983382e-003 4.505488e-001 -7.151618e-001
5381250000 7.971351e-001 -3.938270e-002 6.180647e-003 6.398462e-003 6.294431e-003 6.608109e-003 4.325843e-001 -7.271341e-001
5387500000 7.964607e-001 -6.542105e-002 6.923891e-003 6.164364e-003 6.929136e-003 6.170692e-003 4.136367e-001 -7.391703e-001
5393750000 7.948703e-001 -9.138075e-002 8.229873e-003 5.496529e-003 8.228578e-003 5.609751e-003 3.952152e-001 -7.498962e-001
5400000000 7.932386e-001 -1.168418e-001 8.752289e-003 3.869623e-003 8.705067e-003 3.996101e-003 3.760723e-001 -7.612618e-001
5406250000 7.920226e-001 -1.435135e-001 8.130554e-003 2.446234e-003 8.444206e-003 2.648935e-003 3.561355e-001 -7.716604e-001
5412500000 7.883384e-001 -1.700207e-001 7.816613e-003 2.193477e-003 8.015340e-003 2.040688e-003 3.358376e-001 -7.801736e-001
5418750000 7.840593e-001 -1.962162e-001 7.675926e-003 1.734456e-003 7.660913e-003 1.513127e-003 3.167224e-001 -7.889392e-001
5425000000 7.793105e-001 -2.230215e-001 7.211179e-003 1.298348e-003 7.076619e-003 1.384760e-003 2.971916e-001 -7.977409e-001
5431250000 7.722514e-001 -2.496332e-001 7.108644e-003 1.687936e-003 7.175464e-003 1.803636e-003 2.776609e-001 -8.058195e-001
5437500000 7.637614e-001 -2.740938e-001 7.471617e-003 1.931516e-003 7.780162e-003 1.736824e-003 2.577333e-001 -8.139712e-001
5443750000 7.564205e-001 -2.983430e-001 8.547856e-003 1.354583e-003 8.342823e-003 9.353196e-004 2.363748e-001 -8.214658e-001
5450000000 7.477537e-001 -3.228154e-001 8.452556e-003 -3.586842e-005 8.090754e-003 -1.446687e-004 2.144755e-001 -8.274012e-001
5456250000 7.374321e-001 -3.471392e-001 8.104956e-003 -4.172697e-004 7.741217e-003 -4.755712e-004 1.931445e-001 -8.321868e-001
5462500000 7.269924e-001 -3.702366e-001 7.768390e-003 -4.596788e-004 7.263146e-003 -5.555206e-004 1.728818e-001 -8.360715e-001
5468750000 7.161024e-001 -3.924489e-001 8.196455e-003 -8.397033e-004 7.441054e-003 -6.264288e-004 1.527339e-001 -8.399496e-001
5475000000 7.049643e-001 -4.153265e-001 8.060162e-003 -1.342122e-003 7.386685e-003 -5.573780e-004 1.319527e-001 -8.439812e-001
5481250000 6.924759e-001 -4.370218e-001 8.204841e-003 -1.690471e-003 7.981441e-003 -8.975865e-004 1.104533e-001 -8.466350e-001
5487500000 6.796076e-001 -4.581741e-001 7.895029e-003 -1.890889e-003 7.809692e-003 -1.083618e-003 8.971535e-002 -8.487915e-001
5493750000 6.674027e-001 -4.786569e-001 8.525295e-003 -2.032672e-003 8.598401e-003 -1.078896e-003 6.830554e-002 -8.502752e-001
5500000000 6.541071e-001 -5.008355e-001 8.903607e-003 -3.013268e-003 9.440227e-003 -2.137371e-003 4.753824e-002 -8.514796e-001
5506250000 6.388679e-001 -5.214219e-001 8.905129e-003 -3.827261e-003 9.507578e-003 -3.156960e-003 2.534064e-002 -8.513383e-001
5512500000 6.235216e-001 -5.407901e-001 8.611212e-003 -4.923008e-003 9.406306e-003 -4.390830e-003 5.014131e-003 -8.501480e-001
5518750000 6.081004e-001 -5.603632e-001 7.694805e-003 -5.495165e-003 8.819264e-003 -5.032763e-003 -1.508904e-002 -8.487038e-001
5525000000 5.912883e-001 -5.796655e-001 7.521428e-003 -5.437436e-003 8.662034e-003 -5.720017e-003 -3.512841e-002 -8.482336e-001
5531250000 5.733624e-001 -5.981115e-001 7.630890e-003 -5.741591e-003 8.350775e-003 -6.217192e-003 -5.597778e-002 -8.467036e-001
5537500000 5.554441e-001 -6.140901e-001 7.945156e-003 -6.458223e-003 8.491646e-003 -6.877381e-003 -7.620965e-002 -8.446070e-001
5543750000 5.388157e-001 -6.307834e-001 7.760112e-003 -7.583786e-003 8.095565e-003 -8.095279e-003 -9.729844e-002 -8.422142e-001
5550000000 5.205638e-001 -6.475918e-001 7.061099e-003 -8.919532e-003 7.386049e-003 -9.277903e-003 -1.180674e-001 -8.385276e-001
5556250000 5.009614e-001 -6.630230e-001 6.160439e-003 -9.297991e-003 6.383077e-003 -9.791364e-003 -1.385144e-001 -8.348063e-001
5562500000 4.817072e-001 -6.774551e-001 5.382759e-003 -1.012092e-002 5.580699e-003 -1.044243e-002 -1.590854e-001 -8.300222e-001
5568750000 4.628226e-001 -6.913930e-001 4.278032e-003 -1.025887e-002 4.384595e-003 -1.064073e-002 -1.791499e-001 -8.243049e-001
5575000000 4.432765e-001 -7.054543e-001 3.703186e-003 -1.048580e-002 3.747412e-003 -1.076296e-002 -1.988059e-001 -8.179475e-001
5581250000 4.228458e-001 -7.177705e-001 2.461710e-003 -1.074665e-002 2.699362e-003 -1.089701e-002 -2.178717e-001 -8.118954e-001
5587500000 4.029040e-001 -7.299665e-001 1.845310e-003 -1.026680e-002 2.153160e-003 -1.052290e-002 -2.371128e-001 -8.057364e-001
5593750000 3.827545e-001 -7.423961e-001 1.761591e-003 -1.012264e-002 2.062187e-003 -1.053403e-002 -2.572694e-001 -7.983593e-001
5600000000 3.611262e-001 -7.531855e-001 1.598654e-003 -1.065213e-002 1.825745e-003 -1.120517e-002 -2.763903e-001 -7.904126e-001
5606250000 3.407448e-001 -7.637849e-001 8.867104e-004 -1.104816e-002 9.621902e-004 -1.163350e-002 -2.959433e-001 -7.809457e-001
5612500000 3.187809e-001 -7.742653e-001 1.974701e-004 -1.142349e-002 1.917644e-004 -1.204496e-002 -3.139548e-001 -7.711609e-001
5618750000 2.958988e-001 -7.833766e-001 -7.273632e-004 -1.155817e-002 -6.916464e-004 -1.255978e-002 -3.317756e-001 -7.616631e-001
5625000000 2.740348e-001 -7.907476e-001 -1.335512e-003 -1.173096e-002 -2.063230e-003 -1.261456e-002 -3.495323e-001 -7.518340e-001
5631250000 2.524494e-001 -7.986479e-001 -2.551444e-003 -1.184585e-002 -3.183417e-003 -1.219531e-002 -3.669619e-001 -7.411473e-001
5637500000 2.291593e-001 -8.065452e-001 -3.491278e-003 -1.143180e-002 -4.119473e-003 -1.181212e-002 -3.845039e-001 -7.305104e-001
5643750000 2.057534e-001 -8.117429e-001 -3.823510e-003 -1.142932e-002 -4.470183e-003 -1.151688e-002 -4.015145e-001 -7.187743e-001
5650000000 1.829959e-001 -8.164689e-001 -4.765190e-003 -1.134292e-002 -5.235441e-003 -1.140750e-002 -4.180605e-001 -7.066708e-001
5656250000 1.599226e-001 -8.208011e-001 -5.457723e-003 -1.125897e-002 -5.884491e-003 -1.116441e-002 -4.344264e-001 -6.943542e-001
5662500000 1.367960e-001 -8.228514e-001 -6.391400e-003 -1.132420e-002 -6.574772e-003 -1.129893e-002 -4.509456e-001 -6.813893e-001
5668750000 1.157343e-001 -8.253383e-001 -7.462591e-003 -1.105563e-002 -7.790425e-003 -1.111428e-002 -4.670582e-001 -6.681473e-001
5675000000 9.415957e-002 -8.279547e-001 -8.846633e-003 -1.073310e-002 -8.947421e-003 -1.074747e-002 -4.825512e-001 -6.531948e-001
5681250000 7.264829e-002 -8.312983e-001 -9.919940e-003 -9.677784e-003 -1.022694e-002 -1.012791e-002 -4.969112e-001 -6.387847e-001
5687500000 4.945432e-002 -8.332719e-001 -1.080012e-002 -8.545748e-003 -1.125913e-002 -8.806700e-003 -5.117596e-001 -6.239397e-001
5693750000 2.601603e-002 -8.344805e-001 -1.087809e-002 -7.211532e-003 -1.138467e-002 -7.548309e-003 -5.263662e-001 -6.081938e-001
5700000000 3.072581e-003 -8.339892e-001 -1.093417e-002 -6.553020e-003 -1.177606e-002 -7.101074e-003 -5.396608e-001 -5.916027e-001
5706250000 -1.979367e-002 -8.330166e-001 -1.087582e-002 -6.289580e-003 -1.210265e-002 -6.432659e-003 -5.525978e-001 -5.751141e-001
5712500000 -4.200340e-002 -8.318010e-001 -1.168432e-002 -6.110554e-003 -1.273219e-002 -5.919450e-003 -5.651254e-001 -5.586264e-001
5718750000 -6.401659e-002 -8.302352e-001 -1.220517e-002 -5.476698e-003 -1.366233e-002 -5.186338e-003 -5.772317e-001 -5.409676e-001
5725000000 -8.654442e-002 -8.283632e-001 -1.298491e-002 -4.615005e-003 -1.429132e-002 -3.821171e-003 -5.887140e-001 -5.231584e-001
5731250000 -1.094698e-001 -8.260371e-001 -1.330460e-002 -3.982839e-003 -1.450642e-002 -2.803525e-003 -5.992332e-001 -5.051114e-001
5737500000 -1.331988e-001 -8.221976e-001 -1.383945e-002 -3.044680e-003 -1.478409e-002 -1.576637e-003 -6.103199e-001 -4.875011e-001
5743750000 -1.563866e-001 -8.166916e-001 -1.466230e-002 -2.245446e-003 -1.529765e-002 -3.122033e-004 -6.202911e-001 -4.682761e-001
5750000000 -1.777485e-001 -8.105649e-001 -1.501812e-002 -5.819294e-004 -1.491372e-002 1.319891e-003 -6.296718e-001 -4.494069e-001
5756250000 -1.987091e-001 -8.047874e-001 -1.477938e-002 6.606516e-004 -1.434927e-002 2.386912e-003 -6.383092e-001 -4.305854e-001
5762500000 -2.212178e-001 -7.986926e-001 -1.429370e-002 1.703014e-003 -1.376071e-002 3.031740e-003 -6.471214e-001 -4.111631e-001
5768750000 -2.435951e-001 -7.904916e-001 -1.429319e-002 2.291190e-003 -1.377215e-002 3.732637e-003 -6.562482e-001 -3.912541e-001
5775000000 -2.639664e-001 -7.816867e-001 -1.406439e-002 3.218535e-003 -1.339043e-002 4.878463e-003 -6.634700e-001 -3.702462e-001
5781250000 -2.837101e-001 -7.731658e-001 -1.393283e-002 3.773191e-003 -1.260327e-002 5.444485e-003 -6.702302e-001 -3.492724e-001
5787500000 -3.047319e-001 -7.643588e-001 -1.409172e-002 4.442626e-003 -1.241101e-002 5.621424e-003 -6.760539e-001 -3.273988e-001
5793750000 -3.251152e-001 -7.536557e-001 -1.446364e-002 5.535705e-003 -1.249286e-002 6.460823e-003 -6.799724e-001 -3.063623e-001
5800000000 -3.444680e-001 -7.427254e-001 -1.442786e-002 6.742339e-003 -1.218814e-002 7.226443e-003 -6.848495e-001 -2.856099e-001
5806250000 -3.640697e-001 -7.314063e-001 -1.411726e-002 8.143248e-003 -1.213112e-002 8.185420e-003 -6.889898e-001 -2.640148e-001
5812500000 -3.823854e-001 -7.193283e-001 -1.384900e-002 9.329032e-003 -1.175513e-002 9.255404e-003 -6.919212e-001 -2.413358e-001
5818750000 -4.006208e-001 -7.069436e-001 -1.325980e-002 1.107474e-002 -1.115696e-002 1.034417e-002 -6.935912e-001 -2.191175e-001
5825000000 -4.183062e-001 -6.938329e-001 -1.184685e-002 1.253159e-002 -1.030623e-002 1.121730e-002 -6.946672e-001 -1.974768e-001
5831250000 -4.346546e-001 -6.803594e-001 -1.028583e-002 1.304144e-002 -9.283181e-003 1.183979e-002 -6.957686e-001 -1.752886e-001
5837500000 -4.510594e-001 -6.681727e-001 -9.549244e-003 1.323719e-002 -8.652798e-003 1.220092e-002 -6.955279e-001 -1.523985e-001
5843750000 -4.687307e-001 -6.546375e-001 -8.794763e-003 1.411021e-002 -7.964757e-003 1.324860e-002 -6.941276e-001 -1.296158e-001
5850000000 -4.852250e-001 -6.393617e-001 -7.594257e-003 1.463680e-002 -6.617724e-003 1.381778e-002 -6.906329e-001 -1.070975e-001
5856250000 -5.009747e-001 -6.243805e-001 -6.312970e-003 1.492395e-002 -5.428819e-003 1.388528e-002 -6.870716e-001 -8.653454e-002
5862500000 -5.165060e-001 -6.080286e-001 -5.285071e-003 1.472813e-002 -4.147219e-003 1.391419e-002 -6.841754e-001 -6.590723e-002
5868750000 -5.304186e-001 -5.919021e-001 -5.041110e-003 1.424382e-002 -3.522414e-003 1.314416e-002 -6.810064e-001 -4.437891e-002
5875000000 -5.439371e-001 -5.760435e-001 -5.489629e-003 1.506628e-002 -3.836054e-003 1.320839e-002 -6.761805e-001 -2.195298e-002
5881250000 -5.580187e-001 -5.608257e-001 -5.087500e-003 1.664083e-002 -3.581415e-003 1.408705e-002 -6.699702e-001 -1.164728e-003
5887500000 -5.724596e-001 -5.433959e-001 -3.057485e-003 1.809042e-002 -2.120677e-003 1.469484e-002 -6.635773e-001 2.045538e-002
5893750000 -5.863705e-001 -5.248668e-001 -1.391569e-003 1.821671e-002 -1.376131e-003 1.440119e-002 -6.559852e-001 4.028234e-002
5900000000 -5.979971e-001 -5.059575e-001 1.689371e-004 1.828451e-002 -9.911011e-004 1.421465e-002 -6.484714e-001 6.060652e-002
5906250000 -6.091854e-001 -4.873382e-001 1.270025e-003 1.822799e-002 -9.237760e-004 1.425576e-002 -6.403419e-001 8.056930e-002
5912500000 -6.194482e-001 -4.682347e-001 2.698150e-003 1.836156e-002 -8.895851e-004 1.516034e-002 -6.316575e-001 1.010325e-001
5918750000 -6.296064e-001 -4.498628e-001 4.246690e-003 1.811941e-002 8.733426e-006 1.639978e-002 -6.203099e-001 1.209031e-001
5925000000 -6.398652e-001 -4.313553e-001 5.465336e-003 1.765346e-002 1.286697e-003 1.693772e-002 -6.086793e-001 1.379874e-001
5931250000 -6.497931e-001 -4.114560e-001 6.631430e-003 1.686325e-002 2.728950e-003 1.725965e-002 -5.985360e-001 1.560751e-001
5937500000 -6.581344e-001 -3.912203e-001 7.160859e-003 1.675627e-002 3.872934e-003 1.756790e-002 -5.866097e-001 1.734142e-001
5943750000 -6.659616e-001 -3.707498e-001 8.599719e-003 1.662529e-002 5.331272e-003 1.761785e-002 -5.755045e-001 1.907939e-001
5950000000 -6.729119e-001 -3.499174e-001 9.321327e-003 1.584304e-002 6.498730e-003 1.756738e-002 -5.620996e-001 2.086759e-001
